Freq.	1/I(V4)
1.00000000000000e-01,1.30710743256960e+02,-5.66233319828270e+00,
1.25892541179417e-01,1.30685768132067e+02,-7.11469137100681e+00,
1.58489319246111e-01,1.30646477119547e+02,-8.92964645282530e+00,
1.99526231496888e-01,1.30584924227883e+02,-1.11882019859765e+01,
2.51188643150958e-01,1.30489122158415e+02,-1.39805565128838e+01,
3.16227766016838e-01,1.30341486967612e+02,-1.73987930428102e+01,
3.98107170553497e-01,1.30117320387158e+02,-2.15216544803736e+01,
5.01187233627272e-01,1.29784167168386e+02,-2.63887903334171e+01,
6.30957344480193e-01,1.29303511245146e+02,-3.19660204225012e+01,
7.94328234724282e-01,1.28636348868732e+02,-3.81128979510471e+01,
1.00000000000000e+00,1.27752554528243e+02,-4.45749181302846e+01,
1.25892541179417e+00,1.26640545989978e+02,-5.10204840274780e+01,
1.58489319246111e+00,1.25311547871731e+02,-5.71162164275507e+01,
1.99526231496888e+00,1.23795475191870e+02,-6.26026126694380e+01,
2.51188643150958e+00,1.22131323550371e+02,-6.73316950706088e+01,
3.16227766016838e+00,1.20357769098385e+02,-7.12595977580398e+01,
3.98107170553498e+00,1.18507538122495e+02,-7.44139293563799e+01,
5.01187233627273e+00,1.16605683383681e+02,-7.68583704320692e+01,
6.30957344480194e+00,1.14670246140695e+02,-7.86659799761899e+01,
7.94328234724282e+00,1.12713840630784e+02,-7.99028567241183e+01,
1.00000000000000e+01,1.10745327560138e+02,-8.06195557055361e+01,
1.25892541179417e+01,1.08771268182315e+02,-8.08471509820027e+01,
1.58489319246112e+01,1.06797137482565e+02,-8.05956819848637e+01,
1.99526231496888e+01,1.04828396311126e+02,-7.98537274778653e+01,
2.51188643150958e+01,1.02871561539131e+02,-7.85887072558123e+01,
3.16227766016838e+01,1.00935413709597e+02,-7.67482852347738e+01,
3.98107170553498e+01,9.90324437684641e+01,-7.42640995032753e+01,
5.01187233627273e+01,9.71805221712095e+01,-7.10600483772042e+01,
6.30957344480194e+01,9.54044922284903e+01,-6.70682214006182e+01,
7.94328234724283e+01,9.37368705573031e+01,-6.22551151843911e+01,
1.00000000000000e+02,9.22162046876940e+01,-5.66566598550757e+01,
1.25892541179417e+02,9.08815504078686e+01,-5.04108853319107e+01,
1.58489319246112e+02,8.97631330602085e+01,-4.37659483036484e+01,
1.99526231496888e+02,8.88726571713304e+01,-3.70432824177296e+01,
2.51188643150958e+02,8.81989632240002e+01,-3.05619725963382e+01,
3.16227766016839e+02,8.77120512708673e+01,-2.45621502523199e+01,
3.98107170553498e+02,8.73726240755113e+01,-1.91659065710333e+01,
5.01187233627273e+02,8.71414378155256e+01,-1.43830407866834e+01,
6.30957344480194e+02,8.69848560947637e+01,-1.01419025952932e+01,
7.94328234724283e+02,8.68764247069750e+01,-6.32280038130250e+00,
1.00000000000000e+03,8.67959507040747e+01,-2.78244856057645e+00,
1.25892541179417e+03,8.67275089389242e+01,6.32072038182951e-01,
1.58489319246112e+03,8.66571605294260e+01,4.07681887495895e+00,
1.99526231496888e+03,8.65706457945562e+01,7.70793070381386e+00,
2.51188643150959e+03,8.64510769061111e+01,1.16780471032814e+01,
3.16227766016839e+03,8.62766931102320e+01,1.61282120616704e+01,
3.98107170553498e+03,8.60190590789038e+01,2.11713260998570e+01,
5.01187233627273e+03,8.56426742194949e+01,2.68649180235091e+01,
6.30957344480195e+03,8.51075378304291e+01,3.31770183730811e+01,
7.94328234724283e+03,8.43759068221262e+01,3.99601019627294e+01,
1.00000000000000e+04,8.34222187526237e+01,4.69570299746258e+01,
1.25892541179417e+04,8.22416577721423e+01,5.38534992541016e+01,
1.58489319246112e+04,8.08518927997935e+01,6.03597536865471e+01,
1.99526231496889e+04,7.92867328117744e+01,6.62791036091716e+01,
2.51188643150959e+04,7.75860024366240e+01,7.15325506849093e+01,
3.16227766016839e+04,7.57871029059750e+01,7.61428572376519e+01,
3.98107170553498e+04,7.39207104224500e+01,8.02012751765836e+01,
5.01187233627274e+04,7.20100177079769e+01,8.38367628139577e+01,
6.30957344480195e+04,7.00719012802595e+01,8.71957766635237e+01,
7.94328234724284e+04,6.81187542491981e+01,9.04325926207139e+01,
1.00000000000000e+05,6.61603851903284e+01,9.37073135122976e+01,
1.25892541179417e+05,6.42058792556014e+01,9.71887920863828e+01,
1.58489319246112e+05,6.22656317918234e+01,1.01060456980952e+02,
1.99526231496889e+05,6.03540211486837e+01,1.05527225938630e+02,
2.51188643150959e+05,5.84934897831579e+01,1.10820122301720e+02,
3.16227766016839e+05,5.67210702230460e+01,1.17189516574670e+02,
3.98107170553499e+05,5.50978398939792e+01,1.24864309331116e+02,
5.01187233627274e+05,5.37178123396320e+01,1.33934973688498e+02,
6.30957344480196e+05,5.27017968682603e+01,1.44132279419956e+02,
7.94328234724285e+05,5.21527620593410e+01,1.54619336129877e+02,
1.00000000000000e+06,5.20814068637031e+01,1.64130971976975e+02,
1.25892541179417e+06,5.23757141225880e+01,1.71546062486899e+02,
1.58489319246112e+06,5.28515195155476e+01,1.76393885666897e+02,
1.99526231496889e+06,5.33373945230834e+01,1.78932097824057e+02,
2.51188643150959e+06,5.37303146668615e+01,1.79824376837118e+02,
3.16227766016839e+06,5.39986652071684e+01,1.79770979222637e+02,
3.98107170553499e+06,5.41578953309938e+01,1.79289912039124e+02,
5.01187233627275e+06,5.42411459829774e+01,1.78661511258689e+02,
6.30957344480196e+06,5.42789563878269e+01,1.77982566463872e+02,
7.94328234724285e+06,5.42916939832178e+01,1.77249231692621e+02,
1.00000000000000e+07,5.42900746536618e+01,1.76417071613335e+02,
